
**** 09/03/24 21:46:55 *** PSpice 23.1.0 (29 September 2023) ** ID# 0 ********

 ** Profile: "SCHEMATIC1-oscillator"  [ C:\Users\Shubhojit Ghosh\OneDrive\Desktop\cadence\All cadence file\Relaxation-PSpiceFiles\SCH


 ****     CIRCUIT DESCRIPTION


******************************************************************************




** Creating circuit file "oscillator.cir" 
** WARNING: THIS AUTOMATICALLY GENERATED FILE MAY BE OVERWRITTEN BY SUBSEQUENT SIMULATIONS

*Libraries: 
* Profile Libraries :
* Local Libraries :
* From [PSPICE NETLIST] section of C:\Users\Shubhojit Ghosh\AppData\Roaming\SPB_Data\cdssetup\OrCAD_PSpice\23.1.0\PSpice.ini file:
.lib "nom.lib" 

*Analysis directives: 
.TRAN  0 10ms 0 0.01u 
.OPTIONS ADVCONV
.PROBE64 V(alias(*)) I(alias(*)) W(alias(*)) D(alias(*)) NOISE(alias(*)) 
.INC "..\SCHEMATIC1.net" 



**** INCLUDING SCHEMATIC1.net ****
* source RELAXATION
X_U1         N00305 N00268 N00296 N00289 N00250 uA741
R_R1         N00268 N00250  1k TC=0,0 
R_R2         N00305 N00250  1k TC=0,0 
R_R3         0 N00305  1k TC=0,0 
V_V1         N00296 0 12Vdc
V_V2         0 N00289 12Vdc
C_C1         0 N00268  1u  TC=0,0 

**** RESUMING oscillator.cir ****
.END

**** 09/03/24 21:46:55 *** PSpice 23.1.0 (29 September 2023) ** ID# 0 ********

 ** Profile: "SCHEMATIC1-oscillator"  [ C:\Users\Shubhojit Ghosh\OneDrive\Desktop\cadence\All cadence file\Relaxation-PSpiceFiles\SCH


 ****     Diode MODEL PARAMETERS


******************************************************************************




               X_U1.dx         X_U1.dy         
          IS  800.000000E-18  800.000000E-18 
          RS    1               1.000000E-03 
         CJO                   10.000000E-12 


**** 09/03/24 21:46:55 *** PSpice 23.1.0 (29 September 2023) ** ID# 0 ********

 ** Profile: "SCHEMATIC1-oscillator"  [ C:\Users\Shubhojit Ghosh\OneDrive\Desktop\cadence\All cadence file\Relaxation-PSpiceFiles\SCH


 ****     BJT MODEL PARAMETERS


******************************************************************************




               X_U1.qx         
               NPN             
       LEVEL    1            
          IS  800.000000E-18 
          BF   93.75         
          NF    1            
          BR    1            
          NR    1            
         ISS    0            
          RE    0            
          RC    0            
         CJE    0            
         VJE     .75         
         CJC    0            
         VJC     .75         
         MJC     .33         
        XCJC    1            
         CJS    0            
         VJS     .75         
          KF    0            
          AF    1            
          CN    2.42         
           D     .87         


**** 09/03/24 21:46:55 *** PSpice 23.1.0 (29 September 2023) ** ID# 0 ********

 ** Profile: "SCHEMATIC1-oscillator"  [ C:\Users\Shubhojit Ghosh\OneDrive\Desktop\cadence\All cadence file\Relaxation-PSpiceFiles\SCH


 ****     INITIAL TRANSIENT SOLUTION       TEMPERATURE =   27.000 DEG C


******************************************************************************



 NODE   VOLTAGE     NODE   VOLTAGE     NODE   VOLTAGE     NODE   VOLTAGE


(N00250) 118.3E-06 (N00268) 38.54E-06 (N00289)  -12.0000 (N00296)   12.0000     

(N00305) 19.29E-06 (X_U1.6)-14.06E-09 (X_U1.7) 127.2E-06 (X_U1.8) 127.2E-06     

(X_U1.9)    0.0000 (X_U1.10)    -.6076                   (X_U1.11)   11.9600    

(X_U1.12)   11.9600                   (X_U1.13)    -.5938                       

(X_U1.14)    -.5938                   (X_U1.53)   11.0000                       

(X_U1.54)  -11.0000                   (X_U1.90) 178.8E-06                       

(X_U1.91)   40.0000                   (X_U1.92)  -40.0000                       

(X_U1.99)    0.0000                   




    VOLTAGE SOURCE CURRENTS
    NAME         CURRENT

    V_V1        -1.337E-03
    V_V2        -1.337E-03
    X_U1.vb     -1.406E-13
    X_U1.vc      1.100E-11
    X_U1.ve      1.251E-11
    X_U1.vlim    1.788E-07
    X_U1.vlp    -4.000E-11
    X_U1.vln    -4.000E-11

    TOTAL POWER DISSIPATION   3.21E-02  WATTS



          JOB CONCLUDED

**** 09/03/24 21:46:55 *** PSpice 23.1.0 (29 September 2023) ** ID# 0 ********

 ** Profile: "SCHEMATIC1-oscillator"  [ C:\Users\Shubhojit Ghosh\OneDrive\Desktop\cadence\All cadence file\Relaxation-PSpiceFiles\SCH


 ****     JOB STATISTICS SUMMARY


******************************************************************************



  Total job time (using Solver 1)   =       94.55
